
**** 10/20/22 12:16:59 ***** PSpice 16.6.0 (October 2012) ***** ID# 0 ********

 ** Profile: "SCHEMATIC1-LAP 1"  [ C:\Cadence\SPB_16.6\tools\capture\LAP 1 ( Frequency response )-PSpiceFiles\SCHEMATIC1\LAP 1.sim ] 


 ****     CIRCUIT DESCRIPTION


******************************************************************************




** Creating circuit file "LAP 1.cir" 
** WARNING: THIS AUTOMATICALLY GENERATED FILE MAY BE OVERWRITTEN BY SUBSEQUENT SIMULATIONS

*Libraries: 
* Profile Libraries :
* Local Libraries :
* From [PSPICE NETLIST] section of C:\Users\Halim\AppData\Roaming\SPB_Data\cdssetup\OrCAD_PSpice/16.6.0/PSpice.ini file:
.lib "nom.lib" 

*Analysis directives: 
.AC DEC 4 1 10k
.OPTIONS ADVCONV
.PROBE64 V(alias(*)) I(alias(*)) W(alias(*)) D(alias(*)) NOISE(alias(*)) 
.INC "..\SCHEMATIC1.net" 



**** INCLUDING SCHEMATIC1.net ****
* source LAP 1 ( FREQUENCY RESPONSE )
R_R2         0 N16715  13k TC=0,0 
R_RS         IN N16783  50 TC=0,0 
C_C3         N16783 N16715  10u  TC=0,0 
R_RC         N16725 N16719  2.9K TC=0,0 
V_V2         IN 0  AC 1
+SIN 0 10u 10K 0 0 0
C_C1         0 N16729  10u  TC=0,0 
V_V1         0 N16719 12
Q_Q1         N16725 N16715 N16729 Q2N2222
R_RE         0 N16729  930 TC=0,0 
C_C2         N16725 OUT  10u  TC=0,0 
R_R1         N16715 N16719  50K TC=0,0 
R_RL         0 OUT  4.7K TC=0,0 

**** RESUMING "LAP 1.cir" ****
.END

**** 10/20/22 12:16:59 ***** PSpice 16.6.0 (October 2012) ***** ID# 0 ********

 ** Profile: "SCHEMATIC1-LAP 1"  [ C:\Cadence\SPB_16.6\tools\capture\LAP 1 ( Frequency response )-PSpiceFiles\SCHEMATIC1\LAP 1.sim ] 


 ****     BJT MODEL PARAMETERS


******************************************************************************




               Q2N2222         
               NPN             
       LEVEL    1            
          IS   14.340000E-15 
          BF  255.9          
          NF    1            
         VAF   74.03         
         IKF     .2847       
         ISE   14.340000E-15 
          NE    1.307        
          BR    6.092        
          NR    1            
         ISS    0            
          RB   10            
          RE    0            
          RC    1            
         CJE   22.010000E-12 
         VJE     .75         
         MJE     .377        
         CJC    7.306000E-12 
         VJC     .75         
         MJC     .3416       
        XCJC    1            
         CJS    0            
         VJS     .75         
          TF  411.100000E-12 
         XTF    3            
         VTF    1.7          
         ITF     .6          
          TR   46.910000E-09 
         XTB    1.5          
          KF    0            
          AF    1            
          CN    2.42         
           D     .87         


**** 10/20/22 12:16:59 ***** PSpice 16.6.0 (October 2012) ***** ID# 0 ********

 ** Profile: "SCHEMATIC1-LAP 1"  [ C:\Cadence\SPB_16.6\tools\capture\LAP 1 ( Frequency response )-PSpiceFiles\SCHEMATIC1\LAP 1.sim ] 


 ****     SMALL SIGNAL BIAS SOLUTION       TEMPERATURE =   27.000 DEG C


******************************************************************************



 NODE   VOLTAGE     NODE   VOLTAGE     NODE   VOLTAGE     NODE   VOLTAGE


(   IN)    0.0000  (  OUT)    0.0000  (N16715)   -5.4507 (N16719)  -12.0000     

(N16725)   -6.1160 (N16729)   -1.6188 (N16783)    0.0000 




    VOLTAGE SOURCE CURRENTS
    NAME         CURRENT

    V_V2         0.000E+00
    V_V1        -2.160E-03

    TOTAL POWER DISSIPATION   2.59E-02  WATTS



          JOB CONCLUDED

**** 10/20/22 12:16:59 ***** PSpice 16.6.0 (October 2012) ***** ID# 0 ********

 ** Profile: "SCHEMATIC1-LAP 1"  [ C:\Cadence\SPB_16.6\tools\capture\LAP 1 ( Frequency response )-PSpiceFiles\SCHEMATIC1\LAP 1.sim ] 


 ****     JOB STATISTICS SUMMARY


******************************************************************************



  Total job time (using Solver 1)   =         .03
